! S-parameter export from FEKO
!   Filename:      MSstubOpenCoarse_S11.s1p
!   Creation date: 2015-04-04 12:12:47
! 
# Hz S MA R  5.00000E+01
! 
!     FREQ          |S11|        <S11
 1.0000000E+09  6.4297564E-01   -1.481
 1.0500000E+09  5.6355916E-01  -13.645
 1.1000000E+09  4.8990767E-01  -25.028
 1.1500000E+09  4.2147176E-01  -35.816
 1.2000000E+09  3.5744089E-01  -46.131
 1.2500000E+09  2.9686923E-01  -56.077
 1.3000000E+09  2.3885095E-01  -65.719
 1.3500000E+09  1.8255560E-01  -75.059
 1.4000000E+09  1.2722625E-01  -84.012
 1.4500000E+09  7.2090952E-02  -92.057
 1.5000000E+09  1.6877693E-02  -90.437
 1.5500000E+09  4.0710386E-02   59.684
 1.6000000E+09  9.9232841E-02   53.602
 1.6500000E+09  1.6053368E-01   44.777
 1.7000000E+09  2.2526594E-01   35.241
 1.7500000E+09  2.9429466E-01   25.240
 1.8000000E+09  3.6842819E-01   14.752
 1.8500000E+09  4.4849736E-01    3.681
 1.9000000E+09  5.3463353E-01   -8.047
 1.9500000E+09  6.2665632E-01  -20.607
 2.0000000E+09  7.2241999E-01  -34.173
