! S-parameter export from FEKO
!   Filename:      MSstubOpen_S11.s1p
!   Creation date: 2015-03-30 13:34:39
! 
# Hz S MA R  5.00000E+01
! 
!     FREQ          |S11|        <S11
 1.0000000E+09  6.1119761E-01   -4.266
 1.0250000E+09  5.7215269E-01  -10.301
 1.0500000E+09  5.3475908E-01  -16.127
 1.0750000E+09  4.9894635E-01  -21.770
 1.1000000E+09  4.6455651E-01  -27.256
 1.1250000E+09  4.3149346E-01  -32.603
 1.1500000E+09  3.9964058E-01  -37.830
 1.1750000E+09  3.6880799E-01  -42.954
 1.2000000E+09  3.3884255E-01  -47.988
 1.2250000E+09  3.0960568E-01  -52.943
 1.2500000E+09  2.8097044E-01  -57.827
 1.2750000E+09  2.5279822E-01  -62.651
 1.3000000E+09  2.2496653E-01  -67.419
 1.3250000E+09  1.9733794E-01  -72.127
 1.3500000E+09  1.6981556E-01  -76.770
 1.3750000E+09  1.4227813E-01  -81.334
 1.4000000E+09  1.1461112E-01  -85.781
 1.4250000E+09  8.6657451E-02  -90.039
 1.4500000E+09  5.8431137E-02  -93.723
 1.4750000E+09  2.9832833E-02  -95.242
 1.5000000E+09  3.5116921E-03  -23.409
 1.5250000E+09  2.9668427E-02   61.600
 1.5500000E+09  6.0189866E-02   60.118
 1.5750000E+09  9.1597809E-02   56.298
 1.6000000E+09  1.2397845E-01   51.856
 1.6250000E+09  1.5738744E-01   47.130
 1.6500000E+09  1.9193962E-01   42.224
 1.6750000E+09  2.2772488E-01   37.176
 1.7000000E+09  2.6483604E-01   31.994
 1.7250000E+09  3.0333307E-01   26.679
 1.7500000E+09  3.4331543E-01   21.232
 1.7750000E+09  3.8484285E-01   15.642
 1.8000000E+09  4.2792505E-01    9.899
 1.8250000E+09  4.7263460E-01    3.961
 1.8500000E+09  5.1880107E-01   -2.136
 1.8750000E+09  5.6630500E-01   -8.422
 1.9000000E+09  6.1500015E-01  -14.963
 1.9250000E+09  6.6449504E-01  -21.722
 1.9500000E+09  7.1426230E-01  -28.737
 1.9750000E+09  7.6357160E-01  -36.024
 2.0000000E+09  8.1148099E-01  -43.593
