! S-parameter export from FEKO
!   Filename:      MSstubOpen_S11.s1p
!   Creation date: 2015-04-07 14:46:22
! 
# Hz S MA R  5.00000E+01
! 
!     FREQ          |S11|        <S11
 1.0000000E+09  6.1014152E-01   -4.342
 1.0500000E+09  5.3373878E-01  -16.196
 1.1000000E+09  4.6356896E-01  -27.319
 1.1500000E+09  3.9868641E-01  -37.888
 1.2000000E+09  3.3790358E-01  -48.043
 1.2500000E+09  2.8003777E-01  -57.881
 1.3000000E+09  2.2403023E-01  -67.471
 1.3500000E+09  1.6886115E-01  -76.819
 1.4000000E+09  1.1362792E-01  -85.823
 1.4500000E+09  5.7401983E-02  -93.722
 1.5000000E+09  3.5544940E-03   -5.720
 1.5500000E+09  6.1363239E-02   60.113
 1.6000000E+09  1.2525277E-01   51.800
 1.6500000E+09  1.9333752E-01   42.150
 1.7000000E+09  2.6638382E-01   31.906
 1.7500000E+09  3.4503621E-01   21.130
 1.8000000E+09  4.2984396E-01    9.780
 1.8500000E+09  5.2093191E-01   -2.278
 1.9000000E+09  6.1731653E-01  -15.131
 1.9500000E+09  7.1668759E-01  -28.937
 2.0000000E+09  8.1384651E-01  -43.829
